
T58CC 001:122 SEGGER J-Link V5.12d Log File (0000ms, 1051ms total)
T58CC 001:122 DLL Compiled: Apr 26 2016 19:19:35 (0000ms, 1051ms total)
T58CC 001:122 Logging started @ 2016-05-27 16:55 (0001ms, 1052ms total)
T58CC 001:123 JLINK_SetWarnOutHandler(...) (0000ms, 1052ms total)
T58CC 001:123 JLINK_OpenEx(...)
Firmware: J-Link V9 compiled Mar 29 2016 18:46:37
Hardware: V9.20
S/N: 59821452
Feature(s): RDI, FlashBP, FlashDL, JFlash, GDB  returns O.K. (0283ms, 1335ms total)
T58CC 001:406 JLINK_SetErrorOutHandler(...) (0000ms, 1335ms total)
T58CC 001:406 JLINK_ExecCommand("ProjectFile = "D:\Designs\T3-Modules\code\arm_t3\T3_ARM\USER\JLinkSettings.ini"", ...)  returns 0x00 (0001ms, 1336ms total)
T58CC 001:412 JLINK_ExecCommand("Device = STM32F103VC", ...)Device "STM32F103VC" selected.  returns 0x00 (0008ms, 1344ms total)
T58CC 001:420 JLINK_ExecCommand("DisableConnectionTimeout", ...)  returns 0x01 (0000ms, 1344ms total)
T58CC 001:420 JLINK_GetHardwareVersion()  returns 0x16760 (0000ms, 1344ms total)
T58CC 001:420 JLINK_GetDLLVersion()  returns 51204 (0000ms, 1344ms total)
T58CC 001:420 JLINK_GetFirmwareString(...) (0000ms, 1344ms total)
T58CC 001:444 JLINK_GetDLLVersion()  returns 51204 (0000ms, 1344ms total)
T58CC 001:444 JLINK_GetCompileDateTime() (0000ms, 1344ms total)
T58CC 001:449 JLINK_GetFirmwareString(...) (0000ms, 1344ms total)
T58CC 001:452 JLINK_GetHardwareVersion()  returns 0x16760 (0000ms, 1344ms total)
T58CC 001:484 JLINK_TIF_Select(JLINKARM_TIF_SWD)  returns 0x00 (0005ms, 1349ms total)
T58CC 001:489 JLINK_SetSpeed(5000) (0001ms, 1350ms total)
T58CC 001:490 JLINK_GetId() >0x108 TIF>Found SWD-DP with ID 0x1BA01477 >0x0D TIF> >0x28 TIF> >0x0D TIF> >0x28 TIF> >0x0D TIF> >0x28 TIF> >0x0D TIF> >0x28 TIF> >0x0D TIF> >0x21 TIF> >0x0D TIF> >0x28 TIF> >0x0D TIF> >0x28 TIF> >0x0D TIF> >0x28 TIF> >0x0D TIF> >0x21 TIF> >0x0D TIF> >0x21 TIF> >0x0D TIF> >0x28 TIF> >0x0D TIF> >0x21 TIF> >0x0D TIF> >0x21 TIF> >0x0D TIF> >0x28 TIF> >0x0D TIF> >0x21 TIF> >0x0D TIF> >0x21 TIF> >0x0D TIF> >0x28 TIF> >0x0D TIF> >0x21 TIF> >0x0D TIF> >0x21 TIF> >0x0D TIF>
 >0x28 TIF> >0x0D TIF> >0x21 TIF> >0x0D TIF> >0x21 TIF> >0x0D TIF> >0x28 TIF> >0x0D TIF> >0x21 TIF> >0x0D TIF> >0x21 TIF> >0x108 TIF>Found SWD-DP with ID 0x1BA01477 >0x0D TIF> >0x28 TIF> >0x0D TIF> >0x28 TIF> >0x0D TIF> >0x28 TIF> >0x0D TIF> >0x28 TIF> >0x0D TIF> >0x21 TIF> >0x0D TIF> >0x28 TIF> >0x0D TIF> >0x28 TIF> >0x0D TIF> >0x21 TIF> >0x0D TIF> >0x21 TIF> >0x0D TIF> >0x21 TIF> >0x0D TIF> >0x28 TIF> >0x0D TIF> >0x28 TIF> >0x0D TIF> >0x28 TIF> >0x0D TIF> >0x21 TIF> >0x0D TIF> >0x21 TIF> >0x0D TIF>
 >0x28 TIF> >0x0D TIF> >0x21 TIF> >0x0D TIF> >0x21 TIF>Found Cortex-M3 r1p1, Little endian. -- CPU_ReadMem(4 bytes @ 0xE000EDF0) -- CPU_ReadMem(4 bytes @ 0xE0002000)FPUnit: 6 code (BP) slots and 2 literal slots -- CPU_ReadMem(4 bytes @ 0xE000EDFC) -- CPU_ReadMem(4 bytes @ 0xE0001000) -- CPU_WriteMem(4 bytes @ 0xE0001000) -- CPU_ReadMem(4 bytes @ 0xE000ED88) -- CPU_WriteMem(4 bytes @ 0xE000ED88) -- CPU_ReadMem(4 bytes @ 0xE000ED88) -- CPU_WriteMem(4 bytes @ 0xE000ED88)CoreSight components:
ROMTbl 0 @ E00FF000 -- CPU_ReadMem(16 bytes @ 0xE00FF000) -- CPU_ReadMem(16 bytes @ 0xE000EFF0) -- CPU_ReadMem(16 bytes @ 0xE000EFE0)ROMTbl 0 [0]: FFF0F000, CID: B105E00D, PID: 001BB000 SCS -- CPU_ReadMem(16 bytes @ 0xE0001FF0) -- CPU_ReadMem(16 bytes @ 0xE0001FE0)ROMTbl 0 [1]: FFF02000, CID: B105E00D, PID: 001BB002 DWT -- CPU_ReadMem(16 bytes @ 0xE0002FF0) -- CPU_ReadMem(16 bytes @ 0xE0002FE0)ROMTbl 0 [2]: FFF03000, CID: B105E00D, PID: 000BB003 FPB -- CPU_ReadMem(16 bytes @ 0xE0000FF0)
 -- CPU_ReadMem(16 bytes @ 0xE0000FE0)ROMTbl 0 [3]: FFF01000, CID: B105E00D, PID: 001BB001 ITM -- CPU_ReadMem(16 bytes @ 0xE00FF010) -- CPU_ReadMem(16 bytes @ 0xE0040FF0) -- CPU_ReadMem(16 bytes @ 0xE0040FE0)ROMTbl 0 [4]: FFF41000, CID: B105900D, PID: 001BB923 TPIU-Lite -- CPU_ReadMem(16 bytes @ 0xE0041FF0) -- CPU_ReadMem(16 bytes @ 0xE0041FE0)ROMTbl 0 [5]: FFF42000, CID: B105900D, PID: 101BB924 ETM-M3 >0x0D TIF> >0x21 TIF>  returns 0x1BA01477 (0229ms, 1579ms total)
T58CC 001:719 JLINK_GetDeviceFamily()  returns 3 (0000ms, 1579ms total)
T58CC 001:727 JLINK_ReadMem (0xE00FFFF0, 0x0010 Bytes, ...) -- CPU is running -- CPU_ReadMem(16 bytes @ 0xE00FFFF0) - Data: 0D 00 00 00 10 00 00 00 05 00 00 00 B1 00 00 00  returns 0x00 (0001ms, 1580ms total)
T58CC 001:728 JLINK_ReadMem (0xE00FFFD0, 0x0020 Bytes, ...) -- CPU is running -- CPU_ReadMem(32 bytes @ 0xE00FFFD0) - Data: 00 00 00 00 00 00 00 00 00 00 00 00 00 00 00 00 ...  returns 0x00 (0001ms, 1581ms total)
T58CC 001:729 JLINK_ReadMem (0xE00FF000, 0x0018 Bytes, ...) -- CPU is running -- CPU_ReadMem(24 bytes @ 0xE00FF000) - Data: 03 F0 F0 FF 03 20 F0 FF 03 30 F0 FF 03 10 F0 FF ...  returns 0x00 (0001ms, 1582ms total)
T58CC 001:730 JLINK_ReadMemU32(0xE000ED00, 0x0001 Items, ...) -- CPU is running -- CPU_ReadMem(4 bytes @ 0xE000ED00) - Data: 31 C2 1F 41  returns 0x01 (0001ms, 1583ms total)
T58CC 001:731 JLINK_SetResetType(JLINKARM_RESET_TYPE_NORMAL)  returns JLINKARM_RESET_TYPE_NORMAL (0000ms, 1583ms total)
T58CC 001:731 JLINK_Reset() -- CPU is running -- CPU_WriteMem(4 bytes @ 0xE000EDF0) -- CPU is running -- CPU_WriteMem(4 bytes @ 0xE000EDFC) >0x35 TIF> -- CPU is running -- CPU_WriteMem(4 bytes @ 0xE000ED0C) -- CPU is running -- CPU_ReadMem(4 bytes @ 0xE000EDF0) -- CPU is running -- CPU_ReadMem(4 bytes @ 0xE000EDF0) -- CPU is running -- CPU_ReadMem(4 bytes @ 0xE000EDF0) -- CPU is running -- CPU_WriteMem(4 bytes @ 0xE000EDF0) -- CPU is running -- CPU_WriteMem(4 bytes @ 0xE000EDFC) -- CPU is running
 -- CPU_ReadMem(4 bytes @ 0xE000EDF0) -- CPU_WriteMem(4 bytes @ 0xE0002000) -- CPU_ReadMem(4 bytes @ 0xE000EDFC) -- CPU_ReadMem(4 bytes @ 0xE0001000) (0025ms, 1608ms total)
T58CC 001:756 JLINK_Halt()  returns 0x00 (0000ms, 1608ms total)
T58CC 001:756 JLINK_IsHalted()  returns TRUE (0000ms, 1608ms total)
T58CC 001:756 JLINK_ReadMemU32(0xE000EDF0, 0x0001 Items, ...) -- CPU_ReadMem(4 bytes @ 0xE000EDF0) - Data: 03 00 03 00  returns 0x01 (0001ms, 1609ms total)
T58CC 001:757 JLINK_WriteU32(0xE000EDF0, 0xA05F0003) -- CPU_WriteMem(4 bytes @ 0xE000EDF0)  returns 0x00 (0001ms, 1610ms total)
T58CC 001:758 JLINK_WriteU32(0xE000EDFC, 0x01000000) -- CPU_WriteMem(4 bytes @ 0xE000EDFC)  returns 0x00 (0001ms, 1611ms total)
T58CC 001:786 JLINK_GetHWStatus(...)  returns 0x00 (0002ms, 1613ms total)
T58CC 001:807 JLINK_GetNumBPUnits(Type = 0xFFFFFF00)  returns 0x06 (0000ms, 1613ms total)
T58CC 001:807 JLINK_GetNumBPUnits(Type = 0xF0)  returns 0x2000 (0000ms, 1613ms total)
T58CC 001:807 JLINK_GetNumWPUnits()  returns 0x04 (0000ms, 1613ms total)
T58CC 001:821 JLINK_GetSpeed()  returns 0xFA0 (0000ms, 1613ms total)
T58CC 001:829 JLINK_ReadMemU32(0xE000E004, 0x0001 Items, ...) -- CPU_ReadMem(4 bytes @ 0xE000E004) - Data: 01 00 00 00  returns 0x01 (0002ms, 1615ms total)
T58CC 001:831 JLINK_ReadMemU32(0xE000E004, 0x0001 Items, ...) -- CPU_ReadMem(4 bytes @ 0xE000E004) - Data: 01 00 00 00  returns 0x01 (0001ms, 1616ms total)
T58CC 001:832 JLINK_WriteMem(0xE0001000, 0x001C Bytes, ...) - Data: 01 00 00 00 00 00 00 00 00 00 00 00 00 00 00 00 ... -- CPU_WriteMem(28 bytes @ 0xE0001000)  returns 0x1C (0002ms, 1618ms total)
T58CC 001:834 JLINK_ReadMem (0xE0001000, 0x001C Bytes, ...) -- CPU_ReadMem(28 bytes @ 0xE0001000) - Data: 01 00 00 40 00 00 00 00 00 00 00 00 00 00 00 00 ...  returns 0x00 (0001ms, 1619ms total)
T58CC 001:835 JLINK_Halt()  returns 0x00 (0000ms, 1619ms total)
T58CC 001:835 JLINK_IsHalted()  returns TRUE (0000ms, 1619ms total)
T58CC 001:838 JLINK_WriteMem(0x20000000, 0x0164 Bytes, ...) - Data: 00 BE 0A E0 0D 78 2D 06 68 40 08 24 40 00 00 D3 ... -- CPU_WriteMem(356 bytes @ 0x20000000)  returns 0x164 (0003ms, 1622ms total)
T58CC 001:841 JLINK_WriteReg(R0, 0x08000000)  returns 0x00 (0000ms, 1622ms total)
T58CC 001:841 JLINK_WriteReg(R1, 0x00B71B00)  returns 0x00 (0000ms, 1622ms total)
T58CC 001:841 JLINK_WriteReg(R2, 0x00000001)  returns 0x00 (0000ms, 1622ms total)
T58CC 001:841 JLINK_WriteReg(R3, 0x00000000)  returns 0x00 (0000ms, 1622ms total)
T58CC 001:841 JLINK_WriteReg(R4, 0x00000000)  returns 0x00 (0000ms, 1622ms total)
T58CC 001:841 JLINK_WriteReg(R5, 0x00000000)  returns 0x00 (0000ms, 1622ms total)
T58CC 001:841 JLINK_WriteReg(R6, 0x00000000)  returns 0x00 (0000ms, 1622ms total)
T58CC 001:841 JLINK_WriteReg(R7, 0x00000000)  returns 0x00 (0000ms, 1622ms total)
T58CC 001:841 JLINK_WriteReg(R8, 0x00000000)  returns 0x00 (0000ms, 1622ms total)
T58CC 001:841 JLINK_WriteReg(R9, 0x20000160)  returns 0x00 (0000ms, 1622ms total)
T58CC 001:841 JLINK_WriteReg(R10, 0x00000000)  returns 0x00 (0000ms, 1622ms total)
T58CC 001:841 JLINK_WriteReg(R11, 0x00000000)  returns 0x00 (0000ms, 1622ms total)
T58CC 001:841 JLINK_WriteReg(R12, 0x00000000)  returns 0x00 (0000ms, 1622ms total)
T58CC 001:841 JLINK_WriteReg(R13 (SP), 0x20000800)  returns 0x00 (0000ms, 1622ms total)
T58CC 001:841 JLINK_WriteReg(R14, 0x20000001)  returns 0x00 (0000ms, 1622ms total)
T58CC 001:841 JLINK_WriteReg(R15 (PC), 0x20000038)  returns 0x00 (0000ms, 1622ms total)
T58CC 001:841 JLINK_WriteReg(XPSR, 0x01000000)  returns 0x00 (0000ms, 1622ms total)
T58CC 001:841 JLINK_WriteReg(MSP, 0x20000800)  returns 0x00 (0000ms, 1622ms total)
T58CC 001:841 JLINK_WriteReg(PSP, 0x20000800)  returns 0x00 (0000ms, 1622ms total)
T58CC 001:841 JLINK_WriteReg(CFBP, 0x00000000)  returns 0x00 (0000ms, 1622ms total)
T58CC 001:841 JLINK_SetBPEx(Addr = 0x20000000, Type = 0xFFFFFFF2) -- CPU_ReadMem(2 bytes @ 0x20000000)  returns 0x00000001 (0001ms, 1623ms total)
T58CC 001:842 JLINK_Go() -- CPU_WriteMem(2 bytes @ 0x20000000) -- CPU_ReadMem(4 bytes @ 0xE0001000) -- CPU_WriteMem(4 bytes @ 0xE0002008) -- CPU_WriteMem(4 bytes @ 0xE000200C) -- CPU_WriteMem(4 bytes @ 0xE0002010) -- CPU_WriteMem(4 bytes @ 0xE0002014) -- CPU_WriteMem(4 bytes @ 0xE0002018) -- CPU_WriteMem(4 bytes @ 0xE000201C) -- CPU_WriteMem(4 bytes @ 0xE0001004) (0008ms, 1631ms total)
T58CC 001:850 JLINK_IsHalted() -- CPU_ReadMem(2 bytes @ 0x20000000)  returns TRUE (0004ms, 1635ms total)
T58CC 001:854 JLINK_ReadReg(R15 (PC))  returns 0x20000000 (0000ms, 1631ms total)
T58CC 001:854 JLINK_ClrBPEx(BPHandle = 0x00000001)  returns 0x00 (0000ms, 1631ms total)
T58CC 001:854 JLINK_ReadReg(R0)  returns 0x00000000 (0000ms, 1631ms total)
T58CC 001:854 JLINK_WriteReg(R0, 0x08000000)  returns 0x00 (0000ms, 1631ms total)
T58CC 001:854 JLINK_WriteReg(R1, 0x00B71B00)  returns 0x00 (0000ms, 1631ms total)
T58CC 001:854 JLINK_WriteReg(R2, 0x00000001)  returns 0x00 (0000ms, 1631ms total)
T58CC 001:854 JLINK_WriteReg(R3, 0x00000000)  returns 0x00 (0000ms, 1631ms total)
T58CC 001:854 JLINK_WriteReg(R4, 0x00000000)  returns 0x00 (0000ms, 1631ms total)
T58CC 001:854 JLINK_WriteReg(R5, 0x00000000)  returns 0x00 (0000ms, 1631ms total)
T58CC 001:854 JLINK_WriteReg(R6, 0x00000000)  returns 0x00 (0000ms, 1631ms total)
T58CC 001:854 JLINK_WriteReg(R7, 0x00000000)  returns 0x00 (0000ms, 1631ms total)
T58CC 001:854 JLINK_WriteReg(R8, 0x00000000)  returns 0x00 (0000ms, 1631ms total)
T58CC 001:854 JLINK_WriteReg(R9, 0x20000160)  returns 0x00 (0000ms, 1631ms total)
T58CC 001:854 JLINK_WriteReg(R10, 0x00000000)  returns 0x00 (0000ms, 1631ms total)
T58CC 001:854 JLINK_WriteReg(R11, 0x00000000)  returns 0x00 (0000ms, 1631ms total)
T58CC 001:854 JLINK_WriteReg(R12, 0x00000000)  returns 0x00 (0000ms, 1631ms total)
T58CC 001:854 JLINK_WriteReg(R13 (SP), 0x20000800)  returns 0x00 (0000ms, 1631ms total)
T58CC 001:854 JLINK_WriteReg(R14, 0x20000001)  returns 0x00 (0000ms, 1631ms total)
T58CC 001:854 JLINK_WriteReg(R15 (PC), 0x2000007C)  returns 0x00 (0000ms, 1631ms total)
T58CC 001:854 JLINK_WriteReg(XPSR, 0x01000000)  returns 0x00 (0000ms, 1631ms total)
T58CC 001:854 JLINK_WriteReg(MSP, 0x20000800)  returns 0x00 (0000ms, 1631ms total)
T58CC 001:854 JLINK_WriteReg(PSP, 0x20000800)  returns 0x00 (0000ms, 1631ms total)
T58CC 001:854 JLINK_WriteReg(CFBP, 0x00000000)  returns 0x00 (0000ms, 1631ms total)
T58CC 001:854 JLINK_SetBPEx(Addr = 0x20000000, Type = 0xFFFFFFF2)  returns 0x00000002 (0000ms, 1631ms total)
T58CC 001:854 JLINK_Go() -- CPU_ReadMem(4 bytes @ 0xE0001000) (0004ms, 1635ms total)
T58CC 001:858 JLINK_IsHalted()  returns FALSE (0001ms, 1636ms total)
T58CC 001:893 JLINK_IsHalted() -- CPU_ReadMem(2 bytes @ 0x20000000)  returns TRUE (0004ms, 1639ms total)
T58CC 001:897 JLINK_ReadReg(R15 (PC))  returns 0x20000000 (0000ms, 1635ms total)
T58CC 001:897 JLINK_ClrBPEx(BPHandle = 0x00000002)  returns 0x00 (0000ms, 1635ms total)
T58CC 001:897 JLINK_ReadReg(R0)  returns 0x00000000 (0000ms, 1635ms total)
T58CC 001:949 JLINK_WriteReg(R0, 0x00000001)  returns 0x00 (0000ms, 1635ms total)
T58CC 001:949 JLINK_WriteReg(R1, 0x00B71B00)  returns 0x00 (0000ms, 1635ms total)
T58CC 001:949 JLINK_WriteReg(R2, 0x00000001)  returns 0x00 (0000ms, 1635ms total)
T58CC 001:949 JLINK_WriteReg(R3, 0x00000000)  returns 0x00 (0000ms, 1635ms total)
T58CC 001:949 JLINK_WriteReg(R4, 0x00000000)  returns 0x00 (0000ms, 1635ms total)
T58CC 001:949 JLINK_WriteReg(R5, 0x00000000)  returns 0x00 (0000ms, 1635ms total)
T58CC 001:949 JLINK_WriteReg(R6, 0x00000000)  returns 0x00 (0000ms, 1635ms total)
T58CC 001:949 JLINK_WriteReg(R7, 0x00000000)  returns 0x00 (0000ms, 1635ms total)
T58CC 001:949 JLINK_WriteReg(R8, 0x00000000)  returns 0x00 (0000ms, 1635ms total)
T58CC 001:949 JLINK_WriteReg(R9, 0x20000160)  returns 0x00 (0000ms, 1635ms total)
T58CC 001:949 JLINK_WriteReg(R10, 0x00000000)  returns 0x00 (0000ms, 1635ms total)
T58CC 001:949 JLINK_WriteReg(R11, 0x00000000)  returns 0x00 (0000ms, 1635ms total)
T58CC 001:949 JLINK_WriteReg(R12, 0x00000000)  returns 0x00 (0000ms, 1635ms total)
T58CC 001:949 JLINK_WriteReg(R13 (SP), 0x20000800)  returns 0x00 (0000ms, 1635ms total)
T58CC 001:949 JLINK_WriteReg(R14, 0x20000001)  returns 0x00 (0000ms, 1635ms total)
T58CC 001:949 JLINK_WriteReg(R15 (PC), 0x2000006A)  returns 0x00 (0000ms, 1635ms total)
T58CC 001:949 JLINK_WriteReg(XPSR, 0x01000000)  returns 0x00 (0001ms, 1636ms total)
T58CC 001:950 JLINK_WriteReg(MSP, 0x20000800)  returns 0x00 (0000ms, 1636ms total)
T58CC 001:950 JLINK_WriteReg(PSP, 0x20000800)  returns 0x00 (0000ms, 1636ms total)
T58CC 001:950 JLINK_WriteReg(CFBP, 0x00000000)  returns 0x00 (0000ms, 1636ms total)
T58CC 001:950 JLINK_SetBPEx(Addr = 0x20000000, Type = 0xFFFFFFF2)  returns 0x00000003 (0000ms, 1636ms total)
T58CC 001:950 JLINK_Go() -- CPU_ReadMem(4 bytes @ 0xE0001000) (0003ms, 1639ms total)
T58CC 001:953 JLINK_IsHalted() -- CPU_ReadMem(2 bytes @ 0x20000000)  returns TRUE (0004ms, 1643ms total)
T58CC 001:957 JLINK_ReadReg(R15 (PC))  returns 0x20000000 (0000ms, 1639ms total)
T58CC 001:957 JLINK_ClrBPEx(BPHandle = 0x00000003)  returns 0x00 (0000ms, 1639ms total)
T58CC 001:957 JLINK_ReadReg(R0)  returns 0x00000000 (0001ms, 1640ms total)
T58CC 001:976 JLINK_WriteMem(0x20000000, 0x0164 Bytes, ...) - Data: 00 BE 0A E0 0D 78 2D 06 68 40 08 24 40 00 00 D3 ... -- CPU_WriteMem(356 bytes @ 0x20000000)  returns 0x164 (0002ms, 1642ms total)
T58CC 001:978 JLINK_WriteReg(R0, 0x08000000)  returns 0x00 (0000ms, 1642ms total)
T58CC 001:978 JLINK_WriteReg(R1, 0x00B71B00)  returns 0x00 (0000ms, 1642ms total)
T58CC 001:978 JLINK_WriteReg(R2, 0x00000002)  returns 0x00 (0000ms, 1642ms total)
T58CC 001:978 JLINK_WriteReg(R3, 0x00000000)  returns 0x00 (0000ms, 1642ms total)
T58CC 001:978 JLINK_WriteReg(R4, 0x00000000)  returns 0x00 (0000ms, 1642ms total)
T58CC 001:978 JLINK_WriteReg(R5, 0x00000000)  returns 0x00 (0000ms, 1642ms total)
T58CC 001:978 JLINK_WriteReg(R6, 0x00000000)  returns 0x00 (0000ms, 1642ms total)
T58CC 001:978 JLINK_WriteReg(R7, 0x00000000)  returns 0x00 (0000ms, 1642ms total)
T58CC 001:979 JLINK_WriteReg(R8, 0x00000000)  returns 0x00 (0000ms, 1642ms total)
T58CC 001:979 JLINK_WriteReg(R9, 0x20000160)  returns 0x00 (0000ms, 1642ms total)
T58CC 001:979 JLINK_WriteReg(R10, 0x00000000)  returns 0x00 (0000ms, 1642ms total)
T58CC 001:979 JLINK_WriteReg(R11, 0x00000000)  returns 0x00 (0000ms, 1642ms total)
T58CC 001:979 JLINK_WriteReg(R12, 0x00000000)  returns 0x00 (0000ms, 1642ms total)
T58CC 001:979 JLINK_WriteReg(R13 (SP), 0x20000800)  returns 0x00 (0000ms, 1642ms total)
T58CC 001:979 JLINK_WriteReg(R14, 0x20000001)  returns 0x00 (0000ms, 1642ms total)
T58CC 001:979 JLINK_WriteReg(R15 (PC), 0x20000038)  returns 0x00 (0000ms, 1642ms total)
T58CC 001:979 JLINK_WriteReg(XPSR, 0x01000000)  returns 0x00 (0000ms, 1642ms total)
T58CC 001:979 JLINK_WriteReg(MSP, 0x20000800)  returns 0x00 (0000ms, 1642ms total)
T58CC 001:979 JLINK_WriteReg(PSP, 0x20000800)  returns 0x00 (0000ms, 1642ms total)
T58CC 001:979 JLINK_WriteReg(CFBP, 0x00000000)  returns 0x00 (0000ms, 1642ms total)
T58CC 001:979 JLINK_SetBPEx(Addr = 0x20000000, Type = 0xFFFFFFF2) -- CPU_ReadMem(2 bytes @ 0x20000000)  returns 0x00000004 (0002ms, 1644ms total)
T58CC 001:981 JLINK_Go() -- CPU_WriteMem(2 bytes @ 0x20000000) -- CPU_ReadMem(4 bytes @ 0xE0001000) (0004ms, 1648ms total)
T58CC 001:985 JLINK_IsHalted() -- CPU_ReadMem(2 bytes @ 0x20000000)  returns TRUE (0004ms, 1652ms total)
T58CC 001:989 JLINK_ReadReg(R15 (PC))  returns 0x20000000 (0000ms, 1648ms total)
T58CC 001:989 JLINK_ClrBPEx(BPHandle = 0x00000004)  returns 0x00 (0000ms, 1648ms total)
T58CC 001:989 JLINK_ReadReg(R0)  returns 0x00000000 (0000ms, 1648ms total)
T58CC 001:989 JLINK_WriteMem(0x20000164, 0x0400 Bytes, ...) - Data: F0 AF 00 20 99 2D 00 08 E9 0D 00 08 F3 0D 00 08 ... -- CPU_WriteMem(1024 bytes @ 0x20000164)  returns 0x400 (0005ms, 1653ms total)
T58CC 001:994 JLINK_WriteReg(R0, 0x08000000)  returns 0x00 (0000ms, 1653ms total)
T58CC 001:994 JLINK_WriteReg(R1, 0x00000400)  returns 0x00 (0000ms, 1653ms total)
T58CC 001:994 JLINK_WriteReg(R2, 0x20000164)  returns 0x00 (0000ms, 1653ms total)
T58CC 001:994 JLINK_WriteReg(R3, 0x00000000)  returns 0x00 (0000ms, 1653ms total)
T58CC 001:994 JLINK_WriteReg(R4, 0x00000000)  returns 0x00 (0000ms, 1653ms total)
T58CC 001:994 JLINK_WriteReg(R5, 0x00000000)  returns 0x00 (0000ms, 1653ms total)
T58CC 001:994 JLINK_WriteReg(R6, 0x00000000)  returns 0x00 (0000ms, 1653ms total)
T58CC 001:994 JLINK_WriteReg(R7, 0x00000000)  returns 0x00 (0000ms, 1653ms total)
T58CC 001:994 JLINK_WriteReg(R8, 0x00000000)  returns 0x00 (0000ms, 1653ms total)
T58CC 001:994 JLINK_WriteReg(R9, 0x20000160)  returns 0x00 (0000ms, 1653ms total)
T58CC 001:994 JLINK_WriteReg(R10, 0x00000000)  returns 0x00 (0001ms, 1654ms total)
T58CC 001:995 JLINK_WriteReg(R11, 0x00000000)  returns 0x00 (0000ms, 1654ms total)
T58CC 001:995 JLINK_WriteReg(R12, 0x00000000)  returns 0x00 (0000ms, 1654ms total)
T58CC 001:995 JLINK_WriteReg(R13 (SP), 0x20000800)  returns 0x00 (0000ms, 1654ms total)
T58CC 001:995 JLINK_WriteReg(R14, 0x20000001)  returns 0x00 (0000ms, 1654ms total)
T58CC 001:995 JLINK_WriteReg(R15 (PC), 0x200000F4)  returns 0x00 (0000ms, 1654ms total)
T58CC 001:995 JLINK_WriteReg(XPSR, 0x01000000)  returns 0x00 (0000ms, 1654ms total)
T58CC 001:995 JLINK_WriteReg(MSP, 0x20000800)  returns 0x00 (0000ms, 1654ms total)
T58CC 001:995 JLINK_WriteReg(PSP, 0x20000800)  returns 0x00 (0000ms, 1654ms total)
T58CC 001:995 JLINK_WriteReg(CFBP, 0x00000000)  returns 0x00 (0000ms, 1654ms total)
T58CC 001:995 JLINK_SetBPEx(Addr = 0x20000000, Type = 0xFFFFFFF2)  returns 0x00000005 (0000ms, 1654ms total)
T58CC 001:995 JLINK_Go() -- CPU_ReadMem(4 bytes @ 0xE0001000) (0004ms, 1658ms total)
T58CC 001:999 JLINK_IsHalted()  returns FALSE (0001ms, 1659ms total)
T58CC 002:067 JLINK_IsHalted() -- CPU_ReadMem(2 bytes @ 0x20000000)  returns TRUE (0004ms, 1662ms total)
T58CC 002:071 JLINK_ReadReg(R15 (PC))  returns 0x20000000 (0000ms, 1658ms total)
T58CC 002:071 JLINK_ClrBPEx(BPHandle = 0x00000005)  returns 0x00 (0000ms, 1658ms total)
T58CC 002:071 JLINK_ReadReg(R0)  returns 0x00000000 (0000ms, 1658ms total)
T58CC 002:072 JLINK_WriteMem(0x20000164, 0x0400 Bytes, ...) - Data: 08 46 10 F8 24 00 8D F8 00 00 08 46 00 EB 84 00 ... -- CPU_WriteMem(1024 bytes @ 0x20000164)  returns 0x400 (0004ms, 1662ms total)
T58CC 002:076 JLINK_WriteReg(R0, 0x08000400)  returns 0x00 (0000ms, 1662ms total)
T58CC 002:076 JLINK_WriteReg(R1, 0x00000400)  returns 0x00 (0000ms, 1662ms total)
T58CC 002:076 JLINK_WriteReg(R2, 0x20000164)  returns 0x00 (0000ms, 1662ms total)
T58CC 002:076 JLINK_WriteReg(R3, 0x00000000)  returns 0x00 (0000ms, 1662ms total)
T58CC 002:076 JLINK_WriteReg(R4, 0x00000000)  returns 0x00 (0000ms, 1662ms total)
T58CC 002:076 JLINK_WriteReg(R5, 0x00000000)  returns 0x00 (0000ms, 1662ms total)
T58CC 002:076 JLINK_WriteReg(R6, 0x00000000)  returns 0x00 (0000ms, 1662ms total)
T58CC 002:076 JLINK_WriteReg(R7, 0x00000000)  returns 0x00 (0000ms, 1662ms total)
T58CC 002:076 JLINK_WriteReg(R8, 0x00000000)  returns 0x00 (0000ms, 1662ms total)
T58CC 002:076 JLINK_WriteReg(R9, 0x20000160)  returns 0x00 (0000ms, 1662ms total)
T58CC 002:076 JLINK_WriteReg(R10, 0x00000000)  returns 0x00 (0000ms, 1662ms total)
T58CC 002:077 JLINK_WriteReg(R11, 0x00000000)  returns 0x00 (0000ms, 1663ms total)
T58CC 002:077 JLINK_WriteReg(R12, 0x00000000)  returns 0x00 (0000ms, 1663ms total)
T58CC 002:077 JLINK_WriteReg(R13 (SP), 0x20000800)  returns 0x00 (0000ms, 1663ms total)
T58CC 002:077 JLINK_WriteReg(R14, 0x20000001)  returns 0x00 (0000ms, 1663ms total)
T58CC 002:077 JLINK_WriteReg(R15 (PC), 0x200000F4)  returns 0x00 (0000ms, 1663ms total)
T58CC 002:077 JLINK_WriteReg(XPSR, 0x01000000)  returns 0x00 (0000ms, 1663ms total)
T58CC 002:077 JLINK_WriteReg(MSP, 0x20000800)  returns 0x00 (0000ms, 1663ms total)
T58CC 002:077 JLINK_WriteReg(PSP, 0x20000800)  returns 0x00 (0000ms, 1663ms total)
T58CC 002:077 JLINK_WriteReg(CFBP, 0x00000000)  returns 0x00 (0000ms, 1663ms total)
T58CC 002:077 JLINK_SetBPEx(Addr = 0x20000000, Type = 0xFFFFFFF2)  returns 0x00000006 (0000ms, 1663ms total)
T58CC 002:077 JLINK_Go() -- CPU_ReadMem(4 bytes @ 0xE0001000) (0003ms, 1666ms total)
T58CC 002:080 JLINK_IsHalted()  returns FALSE (0001ms, 1667ms total)
T58CC 002:082 JLINK_IsHalted()  returns FALSE (0000ms, 1666ms total)
T58CC 002:083 JLINK_IsHalted()  returns FALSE (0000ms, 1666ms total)
T58CC 002:084 JLINK_IsHalted()  returns FALSE (0000ms, 1666ms total)
T58CC 002:085 JLINK_IsHalted()  returns FALSE (0000ms, 1666ms total)
T58CC 002:086 JLINK_IsHalted()  returns FALSE (0000ms, 1666ms total)
T58CC 002:087 JLINK_IsHalted()  returns FALSE (0000ms, 1666ms total)
T58CC 002:088 JLINK_IsHalted()  returns FALSE (0000ms, 1666ms total)
T58CC 002:089 JLINK_IsHalted()  returns FALSE (0000ms, 1666ms total)
T58CC 002:090 JLINK_IsHalted()  returns FALSE (0000ms, 1666ms total)
T58CC 002:091 JLINK_IsHalted()  returns FALSE (0001ms, 1667ms total)
T58CC 002:093 JLINK_IsHalted()  returns FALSE (0000ms, 1666ms total)
T58CC 002:094 JLINK_IsHalted()  returns FALSE (0000ms, 1666ms total)
T58CC 002:095 JLINK_IsHalted()  returns FALSE (0000ms, 1666ms total)
T58CC 002:096 JLINK_IsHalted()  returns FALSE (0000ms, 1666ms total)
T58CC 002:097 JLINK_IsHalted()  returns FALSE (0000ms, 1666ms total)
T58CC 002:098 JLINK_IsHalted()  returns FALSE (0000ms, 1666ms total)
T58CC 002:099 JLINK_IsHalted()  returns FALSE (0000ms, 1666ms total)
T58CC 002:100 JLINK_IsHalted()  returns FALSE (0000ms, 1666ms total)
T58CC 002:101 JLINK_IsHalted()  returns FALSE (0000ms, 1666ms total)
T58CC 002:102 JLINK_IsHalted()  returns FALSE (0000ms, 1666ms total)
T58CC 002:103 JLINK_IsHalted()  returns FALSE (0000ms, 1666ms total)
T58CC 002:104 JLINK_IsHalted()  returns FALSE (0000ms, 1666ms total)
T58CC 002:105 JLINK_IsHalted()  returns FALSE (0000ms, 1666ms total)
T58CC 002:106 JLINK_IsHalted()  returns FALSE (0000ms, 1666ms total)
T58CC 002:107 JLINK_IsHalted()  returns FALSE (0000ms, 1666ms total)
T58CC 002:108 JLINK_IsHalted()  returns FALSE (0000ms, 1666ms total)
T58CC 002:109 JLINK_IsHalted()  returns FALSE (0000ms, 1666ms total)
T58CC 002:110 JLINK_IsHalted()  returns FALSE (0001ms, 1667ms total)
T58CC 002:112 JLINK_IsHalted() -- CPU_ReadMem(2 bytes @ 0x20000000)  returns TRUE (0004ms, 1671ms total)
T58CC 002:116 JLINK_ReadReg(R15 (PC))  returns 0x20000000 (0000ms, 1667ms total)
T58CC 002:116 JLINK_ClrBPEx(BPHandle = 0x00000006)  returns 0x00 (0000ms, 1667ms total)
T58CC 002:116 JLINK_ReadReg(R0)  returns 0x00000000 (0000ms, 1667ms total)
T58CC 002:117 JLINK_WriteMem(0x20000164, 0x0400 Bytes, ...) - Data: 1D D1 08 46 C0 78 FF 28 19 D1 01 20 08 70 48 70 ... -- CPU_WriteMem(1024 bytes @ 0x20000164)  returns 0x400 (0004ms, 1671ms total)
T58CC 002:121 JLINK_WriteReg(R0, 0x08000800)  returns 0x00 (0000ms, 1671ms total)
T58CC 002:121 JLINK_WriteReg(R1, 0x00000400)  returns 0x00 (0000ms, 1671ms total)
T58CC 002:121 JLINK_WriteReg(R2, 0x20000164)  returns 0x00 (0000ms, 1671ms total)
T58CC 002:121 JLINK_WriteReg(R3, 0x00000000)  returns 0x00 (0000ms, 1671ms total)
T58CC 002:121 JLINK_WriteReg(R4, 0x00000000)  returns 0x00 (0000ms, 1671ms total)
T58CC 002:121 JLINK_WriteReg(R5, 0x00000000)  returns 0x00 (0000ms, 1671ms total)
T58CC 002:121 JLINK_WriteReg(R6, 0x00000000)  returns 0x00 (0000ms, 1671ms total)
T58CC 002:122 JLINK_WriteReg(R7, 0x00000000)  returns 0x00 (0000ms, 1672ms total)
T58CC 002:122 JLINK_WriteReg(R8, 0x00000000)  returns 0x00 (0000ms, 1672ms total)
T58CC 002:122 JLINK_WriteReg(R9, 0x20000160)  returns 0x00 (0000ms, 1672ms total)
T58CC 002:122 JLINK_WriteReg(R10, 0x00000000)  returns 0x00 (0000ms, 1672ms total)
T58CC 002:122 JLINK_WriteReg(R11, 0x00000000)  returns 0x00 (0000ms, 1672ms total)
T58CC 002:122 JLINK_WriteReg(R12, 0x00000000)  returns 0x00 (0000ms, 1672ms total)
T58CC 002:122 JLINK_WriteReg(R13 (SP), 0x20000800)  returns 0x00 (0000ms, 1672ms total)
T58CC 002:122 JLINK_WriteReg(R14, 0x20000001)  returns 0x00 (0000ms, 1672ms total)
T58CC 002:122 JLINK_WriteReg(R15 (PC), 0x200000F4)  returns 0x00 (0000ms, 1672ms total)
T58CC 002:122 JLINK_WriteReg(XPSR, 0x01000000)  returns 0x00 (0000ms, 1672ms total)
T58CC 002:122 JLINK_WriteReg(MSP, 0x20000800)  returns 0x00 (0000ms, 1672ms total)
T58CC 002:122 JLINK_WriteReg(PSP, 0x20000800)  returns 0x00 (0000ms, 1672ms total)
T58CC 002:122 JLINK_WriteReg(CFBP, 0x00000000)  returns 0x00 (0000ms, 1672ms total)
T58CC 002:122 JLINK_SetBPEx(Addr = 0x20000000, Type = 0xFFFFFFF2)  returns 0x00000007 (0000ms, 1672ms total)
T58CC 002:122 JLINK_Go() -- CPU_ReadMem(4 bytes @ 0xE0001000) (0004ms, 1676ms total)
T58CC 002:126 JLINK_IsHalted()  returns FALSE (0001ms, 1677ms total)
T58CC 002:132 JLINK_IsHalted()  returns FALSE (0001ms, 1677ms total)
T58CC 002:134 JLINK_IsHalted()  returns FALSE (0001ms, 1677ms total)
T58CC 002:136 JLINK_IsHalted()  returns FALSE (0001ms, 1677ms total)
T58CC 002:138 JLINK_IsHalted()  returns FALSE (0000ms, 1676ms total)
T58CC 002:139 JLINK_IsHalted()  returns FALSE (0001ms, 1677ms total)
T58CC 002:171 JLINK_IsHalted() -- CPU_ReadMem(2 bytes @ 0x20000000)  returns TRUE (0004ms, 1680ms total)
T58CC 002:175 JLINK_ReadReg(R15 (PC))  returns 0x20000000 (0000ms, 1676ms total)
T58CC 002:175 JLINK_ClrBPEx(BPHandle = 0x00000007)  returns 0x00 (0000ms, 1676ms total)
T58CC 002:175 JLINK_ReadReg(R0)  returns 0x00000000 (0000ms, 1676ms total)
T58CC 002:175 JLINK_WriteMem(0x20000164, 0x0400 Bytes, ...) - Data: 02 F0 4A FB 9D F8 01 10 38 20 02 F0 45 FB 9D F8 ... -- CPU_WriteMem(1024 bytes @ 0x20000164)  returns 0x400 (0005ms, 1681ms total)
T58CC 002:180 JLINK_WriteReg(R0, 0x08000C00)  returns 0x00 (0000ms, 1681ms total)
T58CC 002:180 JLINK_WriteReg(R1, 0x00000400)  returns 0x00 (0000ms, 1681ms total)
T58CC 002:180 JLINK_WriteReg(R2, 0x20000164)  returns 0x00 (0000ms, 1681ms total)
T58CC 002:180 JLINK_WriteReg(R3, 0x00000000)  returns 0x00 (0000ms, 1681ms total)
T58CC 002:180 JLINK_WriteReg(R4, 0x00000000)  returns 0x00 (0000ms, 1681ms total)
T58CC 002:180 JLINK_WriteReg(R5, 0x00000000)  returns 0x00 (0000ms, 1681ms total)
T58CC 002:180 JLINK_WriteReg(R6, 0x00000000)  returns 0x00 (0000ms, 1681ms total)
T58CC 002:180 JLINK_WriteReg(R7, 0x00000000)  returns 0x00 (0000ms, 1681ms total)
T58CC 002:180 JLINK_WriteReg(R8, 0x00000000)  returns 0x00 (0000ms, 1681ms total)
T58CC 002:180 JLINK_WriteReg(R9, 0x20000160)  returns 0x00 (0000ms, 1681ms total)
T58CC 002:180 JLINK_WriteReg(R10, 0x00000000)  returns 0x00 (0000ms, 1681ms total)
T58CC 002:180 JLINK_WriteReg(R11, 0x00000000)  returns 0x00 (0000ms, 1681ms total)
T58CC 002:180 JLINK_WriteReg(R12, 0x00000000)  returns 0x00 (0000ms, 1681ms total)
T58CC 002:180 JLINK_WriteReg(R13 (SP), 0x20000800)  returns 0x00 (0000ms, 1681ms total)
T58CC 002:180 JLINK_WriteReg(R14, 0x20000001)  returns 0x00 (0000ms, 1681ms total)
T58CC 002:180 JLINK_WriteReg(R15 (PC), 0x200000F4)  returns 0x00 (0000ms, 1681ms total)
T58CC 002:180 JLINK_WriteReg(XPSR, 0x01000000)  returns 0x00 (0000ms, 1681ms total)
T58CC 002:180 JLINK_WriteReg(MSP, 0x20000800)  returns 0x00 (0000ms, 1681ms total)
T58CC 002:180 JLINK_WriteReg(PSP, 0x20000800)  returns 0x00 (0000ms, 1681ms total)
T58CC 002:180 JLINK_WriteReg(CFBP, 0x00000000)  returns 0x00 (0000ms, 1681ms total)
T58CC 002:180 JLINK_SetBPEx(Addr = 0x20000000, Type = 0xFFFFFFF2)  returns 0x00000008 (0000ms, 1681ms total)
T58CC 002:180 JLINK_Go() -- CPU_ReadMem(4 bytes @ 0xE0001000) (0004ms, 1685ms total)
T58CC 002:184 JLINK_IsHalted()  returns FALSE (0001ms, 1686ms total)
T58CC 002:186 JLINK_IsHalted()  returns FALSE (0001ms, 1686ms total)
T58CC 002:188 JLINK_IsHalted()  returns FALSE (0001ms, 1686ms total)
T58CC 002:190 JLINK_IsHalted()  returns FALSE (0001ms, 1686ms total)
T58CC 002:192 JLINK_IsHalted()  returns FALSE (0001ms, 1686ms total)
T58CC 002:194 JLINK_IsHalted()  returns FALSE (0001ms, 1686ms total)
T58CC 002:196 JLINK_IsHalted()  returns FALSE (0001ms, 1686ms total)
T58CC 002:198 JLINK_IsHalted()  returns FALSE (0001ms, 1686ms total)
T58CC 002:200 JLINK_IsHalted()  returns FALSE (0001ms, 1686ms total)
T58CC 002:202 JLINK_IsHalted()  returns FALSE (0001ms, 1686ms total)
T58CC 002:204 JLINK_IsHalted()  returns FALSE (0000ms, 1685ms total)
T58CC 002:205 JLINK_IsHalted()  returns FALSE (0000ms, 1685ms total)
T58CC 002:206 JLINK_IsHalted()  returns FALSE (0000ms, 1685ms total)
T58CC 002:207 JLINK_IsHalted()  returns FALSE (0000ms, 1685ms total)
T58CC 002:208 JLINK_IsHalted()  returns FALSE (0000ms, 1685ms total)
T58CC 002:209 JLINK_IsHalted()  returns FALSE (0000ms, 1685ms total)
T58CC 002:210 JLINK_IsHalted()  returns FALSE (0001ms, 1686ms total)
T58CC 002:212 JLINK_IsHalted()  returns FALSE (0000ms, 1686ms total)
T58CC 002:213 JLINK_IsHalted()  returns FALSE (0000ms, 1686ms total)
T58CC 002:214 JLINK_IsHalted()  returns FALSE (0000ms, 1686ms total)
T58CC 002:215 JLINK_IsHalted() -- CPU_ReadMem(2 bytes @ 0x20000000)  returns TRUE (0004ms, 1690ms total)
T58CC 002:219 JLINK_ReadReg(R15 (PC))  returns 0x20000000 (0000ms, 1686ms total)
T58CC 002:219 JLINK_ClrBPEx(BPHandle = 0x00000008)  returns 0x00 (0000ms, 1686ms total)
T58CC 002:219 JLINK_ReadReg(R0)  returns 0x00000000 (0000ms, 1686ms total)
T58CC 002:220 JLINK_WriteMem(0x20000164, 0x0400 Bytes, ...) - Data: 23 60 23 E0 18 4B 5B 68 03 F4 70 10 16 4B 5B 68 ... -- CPU_WriteMem(1024 bytes @ 0x20000164)  returns 0x400 (0004ms, 1690ms total)
T58CC 002:224 JLINK_WriteReg(R0, 0x08001000)  returns 0x00 (0000ms, 1690ms total)
T58CC 002:224 JLINK_WriteReg(R1, 0x00000400)  returns 0x00 (0000ms, 1690ms total)
T58CC 002:224 JLINK_WriteReg(R2, 0x20000164)  returns 0x00 (0000ms, 1690ms total)
T58CC 002:225 JLINK_WriteReg(R3, 0x00000000)  returns 0x00 (0000ms, 1691ms total)
T58CC 002:225 JLINK_WriteReg(R4, 0x00000000)  returns 0x00 (0000ms, 1691ms total)
T58CC 002:225 JLINK_WriteReg(R5, 0x00000000)  returns 0x00 (0000ms, 1691ms total)
T58CC 002:225 JLINK_WriteReg(R6, 0x00000000)  returns 0x00 (0000ms, 1691ms total)
T58CC 002:225 JLINK_WriteReg(R7, 0x00000000)  returns 0x00 (0000ms, 1691ms total)
T58CC 002:225 JLINK_WriteReg(R8, 0x00000000)  returns 0x00 (0000ms, 1691ms total)
T58CC 002:225 JLINK_WriteReg(R9, 0x20000160)  returns 0x00 (0000ms, 1691ms total)
T58CC 002:225 JLINK_WriteReg(R10, 0x00000000)  returns 0x00 (0000ms, 1691ms total)
T58CC 002:225 JLINK_WriteReg(R11, 0x00000000)  returns 0x00 (0000ms, 1691ms total)
T58CC 002:225 JLINK_WriteReg(R12, 0x00000000)  returns 0x00 (0000ms, 1691ms total)
T58CC 002:225 JLINK_WriteReg(R13 (SP), 0x20000800)  returns 0x00 (0000ms, 1691ms total)
T58CC 002:225 JLINK_WriteReg(R14, 0x20000001)  returns 0x00 (0000ms, 1691ms total)
T58CC 002:225 JLINK_WriteReg(R15 (PC), 0x200000F4)  returns 0x00 (0000ms, 1691ms total)
T58CC 002:225 JLINK_WriteReg(XPSR, 0x01000000)  returns 0x00 (0000ms, 1691ms total)
T58CC 002:225 JLINK_WriteReg(MSP, 0x20000800)  returns 0x00 (0000ms, 1691ms total)
T58CC 002:225 JLINK_WriteReg(PSP, 0x20000800)  returns 0x00 (0000ms, 1691ms total)
T58CC 002:226 JLINK_WriteReg(CFBP, 0x00000000)  returns 0x00 (0000ms, 1692ms total)
T58CC 002:226 JLINK_SetBPEx(Addr = 0x20000000, Type = 0xFFFFFFF2)  returns 0x00000009 (0000ms, 1692ms total)
T58CC 002:226 JLINK_Go() -- CPU_ReadMem(4 bytes @ 0xE0001000) (0003ms, 1695ms total)
T58CC 002:229 JLINK_IsHalted()  returns FALSE (0001ms, 1696ms total)
T58CC 002:231 JLINK_IsHalted()  returns FALSE (0000ms, 1695ms total)
T58CC 002:232 JLINK_IsHalted()  returns FALSE (0000ms, 1695ms total)
T58CC 002:233 JLINK_IsHalted()  returns FALSE (0000ms, 1695ms total)
T58CC 002:234 JLINK_IsHalted()  returns FALSE (0000ms, 1695ms total)
T58CC 002:235 JLINK_IsHalted()  returns FALSE (0000ms, 1695ms total)
T58CC 002:236 JLINK_IsHalted()  returns FALSE (0000ms, 1695ms total)
T58CC 002:237 JLINK_IsHalted()  returns FALSE (0000ms, 1695ms total)
T58CC 002:238 JLINK_IsHalted()  returns FALSE (0000ms, 1695ms total)
T58CC 002:239 JLINK_IsHalted()  returns FALSE (0000ms, 1695ms total)
T58CC 002:240 JLINK_IsHalted()  returns FALSE (0000ms, 1695ms total)
T58CC 002:241 JLINK_IsHalted()  returns FALSE (0000ms, 1695ms total)
T58CC 002:242 JLINK_IsHalted()  returns FALSE (0000ms, 1695ms total)
T58CC 002:243 JLINK_IsHalted()  returns FALSE (0000ms, 1695ms total)
T58CC 002:244 JLINK_IsHalted()  returns FALSE (0000ms, 1695ms total)
T58CC 002:245 JLINK_IsHalted()  returns FALSE (0000ms, 1695ms total)
T58CC 002:246 JLINK_IsHalted()  returns FALSE (0000ms, 1695ms total)
T58CC 002:247 JLINK_IsHalted()  returns FALSE (0000ms, 1695ms total)
T58CC 002:248 JLINK_IsHalted()  returns FALSE (0000ms, 1695ms total)
T58CC 002:249 JLINK_IsHalted()  returns FALSE (0000ms, 1695ms total)
T58CC 002:250 JLINK_IsHalted()  returns FALSE (0002ms, 1697ms total)
T58CC 002:279 JLINK_IsHalted() -- CPU_ReadMem(2 bytes @ 0x20000000)  returns TRUE (0004ms, 1699ms total)
T58CC 002:283 JLINK_ReadReg(R15 (PC))  returns 0x20000000 (0000ms, 1695ms total)
T58CC 002:283 JLINK_ClrBPEx(BPHandle = 0x00000009)  returns 0x00 (0000ms, 1695ms total)
T58CC 002:283 JLINK_ReadReg(R0)  returns 0x00000000 (0000ms, 1695ms total)
T58CC 002:284 JLINK_WriteMem(0x20000164, 0x0400 Bytes, ...) - Data: 76 68 26 F0 70 66 2D 4F 7E 60 12 E0 00 F4 80 16 ... -- CPU_WriteMem(1024 bytes @ 0x20000164)  returns 0x400 (0004ms, 1699ms total)
T58CC 002:288 JLINK_WriteReg(R0, 0x08001400)  returns 0x00 (0000ms, 1699ms total)
T58CC 002:288 JLINK_WriteReg(R1, 0x00000400)  returns 0x00 (0000ms, 1699ms total)
T58CC 002:288 JLINK_WriteReg(R2, 0x20000164)  returns 0x00 (0000ms, 1699ms total)
T58CC 002:288 JLINK_WriteReg(R3, 0x00000000)  returns 0x00 (0000ms, 1699ms total)
T58CC 002:288 JLINK_WriteReg(R4, 0x00000000)  returns 0x00 (0000ms, 1699ms total)
T58CC 002:288 JLINK_WriteReg(R5, 0x00000000)  returns 0x00 (0001ms, 1700ms total)
T58CC 002:289 JLINK_WriteReg(R6, 0x00000000)  returns 0x00 (0000ms, 1700ms total)
T58CC 002:289 JLINK_WriteReg(R7, 0x00000000)  returns 0x00 (0000ms, 1700ms total)
T58CC 002:289 JLINK_WriteReg(R8, 0x00000000)  returns 0x00 (0000ms, 1700ms total)
T58CC 002:289 JLINK_WriteReg(R9, 0x20000160)  returns 0x00 (0000ms, 1700ms total)
T58CC 002:289 JLINK_WriteReg(R10, 0x00000000)  returns 0x00 (0000ms, 1700ms total)
T58CC 002:289 JLINK_WriteReg(R11, 0x00000000)  returns 0x00 (0000ms, 1700ms total)
T58CC 002:289 JLINK_WriteReg(R12, 0x00000000)  returns 0x00 (0000ms, 1700ms total)
T58CC 002:289 JLINK_WriteReg(R13 (SP), 0x20000800)  returns 0x00 (0000ms, 1700ms total)
T58CC 002:289 JLINK_WriteReg(R14, 0x20000001)  returns 0x00 (0000ms, 1700ms total)
T58CC 002:289 JLINK_WriteReg(R15 (PC), 0x200000F4)  returns 0x00 (0000ms, 1700ms total)
T58CC 002:289 JLINK_WriteReg(XPSR, 0x01000000)  returns 0x00 (0000ms, 1700ms total)
T58CC 002:289 JLINK_WriteReg(MSP, 0x20000800)  returns 0x00 (0000ms, 1700ms total)
T58CC 002:289 JLINK_WriteReg(PSP, 0x20000800)  returns 0x00 (0000ms, 1700ms total)
T58CC 002:289 JLINK_WriteReg(CFBP, 0x00000000)  returns 0x00 (0000ms, 1700ms total)
T58CC 002:289 JLINK_SetBPEx(Addr = 0x20000000, Type = 0xFFFFFFF2)  returns 0x0000000A (0000ms, 1700ms total)
T58CC 002:289 JLINK_Go() -- CPU_ReadMem(4 bytes @ 0xE0001000) (0003ms, 1703ms total)
T58CC 002:292 JLINK_IsHalted()  returns FALSE (0001ms, 1704ms total)
T58CC 002:294 JLINK_IsHalted()  returns FALSE (0000ms, 1703ms total)
T58CC 002:295 JLINK_IsHalted()  returns FALSE (0000ms, 1703ms total)
T58CC 002:296 JLINK_IsHalted()  returns FALSE (0000ms, 1703ms total)
T58CC 002:297 JLINK_IsHalted()  returns FALSE (0000ms, 1703ms total)
T58CC 002:298 JLINK_IsHalted()  returns FALSE (0000ms, 1703ms total)
T58CC 002:299 JLINK_IsHalted()  returns FALSE (0000ms, 1703ms total)
T58CC 002:300 JLINK_IsHalted()  returns FALSE (0000ms, 1703ms total)
T58CC 002:301 JLINK_IsHalted()  returns FALSE (0000ms, 1703ms total)
T58CC 002:302 JLINK_IsHalted()  returns FALSE (0000ms, 1703ms total)
T58CC 002:303 JLINK_IsHalted()  returns FALSE (0000ms, 1703ms total)
T58CC 002:304 JLINK_IsHalted()  returns FALSE (0000ms, 1703ms total)
T58CC 002:305 JLINK_IsHalted()  returns FALSE (0000ms, 1703ms total)
T58CC 002:306 JLINK_IsHalted()  returns FALSE (0000ms, 1703ms total)
T58CC 002:307 JLINK_IsHalted()  returns FALSE (0000ms, 1703ms total)
T58CC 002:308 JLINK_IsHalted()  returns FALSE (0000ms, 1703ms total)
T58CC 002:309 JLINK_IsHalted()  returns FALSE (0000ms, 1703ms total)
T58CC 002:310 JLINK_IsHalted()  returns FALSE (0000ms, 1703ms total)
T58CC 002:311 JLINK_IsHalted()  returns FALSE (0000ms, 1703ms total)
T58CC 002:312 JLINK_IsHalted()  returns FALSE (0000ms, 1703ms total)
T58CC 002:313 JLINK_IsHalted()  returns FALSE (0000ms, 1703ms total)
T58CC 002:314 JLINK_IsHalted()  returns FALSE (0000ms, 1703ms total)
T58CC 002:315 JLINK_IsHalted()  returns FALSE (0000ms, 1703ms total)
T58CC 002:316 JLINK_IsHalted()  returns FALSE (0000ms, 1703ms total)
T58CC 002:317 JLINK_IsHalted()  returns FALSE (0000ms, 1703ms total)
T58CC 002:318 JLINK_IsHalted()  returns FALSE (0000ms, 1703ms total)
T58CC 002:319 JLINK_IsHalted()  returns FALSE (0000ms, 1703ms total)
T58CC 002:320 JLINK_IsHalted()  returns FALSE (0000ms, 1703ms total)
T58CC 002:321 JLINK_IsHalted()  returns FALSE (0000ms, 1703ms total)
T58CC 002:322 JLINK_IsHalted()  returns FALSE (0000ms, 1703ms total)
T58CC 002:323 JLINK_IsHalted() -- CPU_ReadMem(2 bytes @ 0x20000000)  returns TRUE (0004ms, 1707ms total)
T58CC 002:327 JLINK_ReadReg(R15 (PC))  returns 0x20000000 (0000ms, 1703ms total)
T58CC 002:327 JLINK_ClrBPEx(BPHandle = 0x0000000A)  returns 0x00 (0000ms, 1703ms total)
T58CC 002:327 JLINK_ReadReg(R0)  returns 0x00000000 (0000ms, 1703ms total)
T58CC 002:328 JLINK_WriteMem(0x20000164, 0x0400 Bytes, ...) - Data: 82 43 10 4B 1A 61 70 47 12 49 40 39 08 60 70 47 ... -- CPU_WriteMem(1024 bytes @ 0x20000164)  returns 0x400 (0004ms, 1707ms total)
T58CC 002:332 JLINK_WriteReg(R0, 0x08001800)  returns 0x00 (0000ms, 1707ms total)
T58CC 002:332 JLINK_WriteReg(R1, 0x00000400)  returns 0x00 (0000ms, 1707ms total)
T58CC 002:332 JLINK_WriteReg(R2, 0x20000164)  returns 0x00 (0000ms, 1707ms total)
T58CC 002:332 JLINK_WriteReg(R3, 0x00000000)  returns 0x00 (0001ms, 1708ms total)
T58CC 002:333 JLINK_WriteReg(R4, 0x00000000)  returns 0x00 (0000ms, 1708ms total)
T58CC 002:333 JLINK_WriteReg(R5, 0x00000000)  returns 0x00 (0000ms, 1708ms total)
T58CC 002:333 JLINK_WriteReg(R6, 0x00000000)  returns 0x00 (0000ms, 1708ms total)
T58CC 002:333 JLINK_WriteReg(R7, 0x00000000)  returns 0x00 (0000ms, 1708ms total)
T58CC 002:333 JLINK_WriteReg(R8, 0x00000000)  returns 0x00 (0000ms, 1708ms total)
T58CC 002:333 JLINK_WriteReg(R9, 0x20000160)  returns 0x00 (0000ms, 1708ms total)
T58CC 002:333 JLINK_WriteReg(R10, 0x00000000)  returns 0x00 (0000ms, 1708ms total)
T58CC 002:333 JLINK_WriteReg(R11, 0x00000000)  returns 0x00 (0000ms, 1708ms total)
T58CC 002:333 JLINK_WriteReg(R12, 0x00000000)  returns 0x00 (0000ms, 1708ms total)
T58CC 002:333 JLINK_WriteReg(R13 (SP), 0x20000800)  returns 0x00 (0000ms, 1708ms total)
T58CC 002:333 JLINK_WriteReg(R14, 0x20000001)  returns 0x00 (0000ms, 1708ms total)
T58CC 002:333 JLINK_WriteReg(R15 (PC), 0x200000F4)  returns 0x00 (0000ms, 1708ms total)
T58CC 002:333 JLINK_WriteReg(XPSR, 0x01000000)  returns 0x00 (0000ms, 1708ms total)
T58CC 002:333 JLINK_WriteReg(MSP, 0x20000800)  returns 0x00 (0000ms, 1708ms total)
T58CC 002:333 JLINK_WriteReg(PSP, 0x20000800)  returns 0x00 (0000ms, 1708ms total)
T58CC 002:333 JLINK_WriteReg(CFBP, 0x00000000)  returns 0x00 (0000ms, 1708ms total)
T58CC 002:333 JLINK_SetBPEx(Addr = 0x20000000, Type = 0xFFFFFFF2)  returns 0x0000000B (0000ms, 1708ms total)
T58CC 002:333 JLINK_Go() -- CPU_ReadMem(4 bytes @ 0xE0001000) (0004ms, 1712ms total)
T58CC 002:337 JLINK_IsHalted()  returns FALSE (0001ms, 1713ms total)
T58CC 002:339 JLINK_IsHalted()  returns FALSE (0001ms, 1713ms total)
T58CC 002:341 JLINK_IsHalted()  returns FALSE (0001ms, 1713ms total)
T58CC 002:343 JLINK_IsHalted()  returns FALSE (0001ms, 1713ms total)
T58CC 002:345 JLINK_IsHalted()  returns FALSE (0001ms, 1713ms total)
T58CC 002:347 JLINK_IsHalted()  returns FALSE (0001ms, 1713ms total)
T58CC 002:349 JLINK_IsHalted()  returns FALSE (0000ms, 1712ms total)
T58CC 002:350 JLINK_IsHalted()  returns FALSE (0000ms, 1712ms total)
T58CC 002:351 JLINK_IsHalted()  returns FALSE (0000ms, 1712ms total)
T58CC 002:352 JLINK_IsHalted()  returns FALSE (0000ms, 1712ms total)
T58CC 002:353 JLINK_IsHalted()  returns FALSE (0000ms, 1712ms total)
T58CC 002:354 JLINK_IsHalted()  returns FALSE (0000ms, 1712ms total)
T58CC 002:355 JLINK_IsHalted()  returns FALSE (0001ms, 1713ms total)
T58CC 002:357 JLINK_IsHalted()  returns FALSE (0000ms, 1712ms total)
T58CC 002:358 JLINK_IsHalted()  returns FALSE (0000ms, 1712ms total)
T58CC 002:359 JLINK_IsHalted()  returns FALSE (0001ms, 1713ms total)
T58CC 002:384 JLINK_IsHalted() -- CPU_ReadMem(2 bytes @ 0x20000000)  returns TRUE (0004ms, 1716ms total)
T58CC 002:388 JLINK_ReadReg(R15 (PC))  returns 0x20000000 (0000ms, 1712ms total)
T58CC 002:388 JLINK_ClrBPEx(BPHandle = 0x0000000B)  returns 0x00 (0000ms, 1712ms total)
T58CC 002:388 JLINK_ReadReg(R0)  returns 0x00000000 (0000ms, 1712ms total)
T58CC 002:389 JLINK_WriteMem(0x20000164, 0x0400 Bytes, ...) - Data: 10 20 FF F7 F4 FD 88 E0 DF 48 84 42 08 D1 01 21 ... -- CPU_WriteMem(1024 bytes @ 0x20000164)  returns 0x400 (0004ms, 1716ms total)
T58CC 002:393 JLINK_WriteReg(R0, 0x08001C00)  returns 0x00 (0000ms, 1716ms total)
T58CC 002:393 JLINK_WriteReg(R1, 0x00000400)  returns 0x00 (0000ms, 1716ms total)
T58CC 002:393 JLINK_WriteReg(R2, 0x20000164)  returns 0x00 (0000ms, 1716ms total)
T58CC 002:393 JLINK_WriteReg(R3, 0x00000000)  returns 0x00 (0000ms, 1716ms total)
T58CC 002:393 JLINK_WriteReg(R4, 0x00000000)  returns 0x00 (0000ms, 1716ms total)
T58CC 002:393 JLINK_WriteReg(R5, 0x00000000)  returns 0x00 (0000ms, 1716ms total)
T58CC 002:393 JLINK_WriteReg(R6, 0x00000000)  returns 0x00 (0000ms, 1716ms total)
T58CC 002:393 JLINK_WriteReg(R7, 0x00000000)  returns 0x00 (0000ms, 1716ms total)
T58CC 002:393 JLINK_WriteReg(R8, 0x00000000)  returns 0x00 (0000ms, 1716ms total)
T58CC 002:393 JLINK_WriteReg(R9, 0x20000160)  returns 0x00 (0000ms, 1716ms total)
T58CC 002:393 JLINK_WriteReg(R10, 0x00000000)  returns 0x00 (0000ms, 1716ms total)
T58CC 002:393 JLINK_WriteReg(R11, 0x00000000)  returns 0x00 (0000ms, 1716ms total)
T58CC 002:393 JLINK_WriteReg(R12, 0x00000000)  returns 0x00 (0000ms, 1716ms total)
T58CC 002:393 JLINK_WriteReg(R13 (SP), 0x20000800)  returns 0x00 (0000ms, 1716ms total)
T58CC 002:393 JLINK_WriteReg(R14, 0x20000001)  returns 0x00 (0000ms, 1716ms total)
T58CC 002:393 JLINK_WriteReg(R15 (PC), 0x200000F4)  returns 0x00 (0000ms, 1716ms total)
T58CC 002:393 JLINK_WriteReg(XPSR, 0x01000000)  returns 0x00 (0000ms, 1716ms total)
T58CC 002:393 JLINK_WriteReg(MSP, 0x20000800)  returns 0x00 (0000ms, 1716ms total)
T58CC 002:393 JLINK_WriteReg(PSP, 0x20000800)  returns 0x00 (0000ms, 1716ms total)
T58CC 002:393 JLINK_WriteReg(CFBP, 0x00000000)  returns 0x00 (0000ms, 1716ms total)
T58CC 002:393 JLINK_SetBPEx(Addr = 0x20000000, Type = 0xFFFFFFF2)  returns 0x0000000C (0000ms, 1716ms total)
T58CC 002:393 JLINK_Go() -- CPU_ReadMem(4 bytes @ 0xE0001000) (0004ms, 1720ms total)
T58CC 002:397 JLINK_IsHalted()  returns FALSE (0001ms, 1721ms total)
T58CC 002:399 JLINK_IsHalted()  returns FALSE (0001ms, 1721ms total)
T58CC 002:401 JLINK_IsHalted()  returns FALSE (0001ms, 1721ms total)
T58CC 002:403 JLINK_IsHalted()  returns FALSE (0001ms, 1721ms total)
T58CC 002:405 JLINK_IsHalted()  returns FALSE (0001ms, 1721ms total)
T58CC 002:407 JLINK_IsHalted()  returns FALSE (0001ms, 1721ms total)
T58CC 002:409 JLINK_IsHalted()  returns FALSE (0001ms, 1721ms total)
T58CC 002:411 JLINK_IsHalted()  returns FALSE (0001ms, 1721ms total)
T58CC 002:414 JLINK_IsHalted()  returns FALSE (0001ms, 1721ms total)
T58CC 002:416 JLINK_IsHalted()  returns FALSE (0001ms, 1722ms total)
T58CC 002:418 JLINK_IsHalted()  returns FALSE (0001ms, 1722ms total)
T58CC 002:420 JLINK_IsHalted()  returns FALSE (0001ms, 1722ms total)
T58CC 002:422 JLINK_IsHalted()  returns FALSE (0001ms, 1722ms total)
T58CC 002:424 JLINK_IsHalted()  returns FALSE (0001ms, 1722ms total)
T58CC 002:426 JLINK_IsHalted()  returns FALSE (0001ms, 1722ms total)
T58CC 002:428 JLINK_IsHalted() -- CPU_ReadMem(2 bytes @ 0x20000000)  returns TRUE (0004ms, 1725ms total)
T58CC 002:432 JLINK_ReadReg(R15 (PC))  returns 0x20000000 (0000ms, 1721ms total)
T58CC 002:432 JLINK_ClrBPEx(BPHandle = 0x0000000C)  returns 0x00 (0000ms, 1721ms total)
T58CC 002:432 JLINK_ReadReg(R0)  returns 0x00000000 (0000ms, 1721ms total)
T58CC 002:433 JLINK_WriteMem(0x20000164, 0x0400 Bytes, ...) - Data: 82 8B 4F F2 FF 33 1A 40 82 83 82 8B 4F F6 FF 73 ... -- CPU_WriteMem(1024 bytes @ 0x20000164)  returns 0x400 (0004ms, 1725ms total)
T58CC 002:437 JLINK_WriteReg(R0, 0x08002000)  returns 0x00 (0000ms, 1725ms total)
T58CC 002:437 JLINK_WriteReg(R1, 0x00000400)  returns 0x00 (0000ms, 1725ms total)
T58CC 002:437 JLINK_WriteReg(R2, 0x20000164)  returns 0x00 (0000ms, 1725ms total)
T58CC 002:437 JLINK_WriteReg(R3, 0x00000000)  returns 0x00 (0000ms, 1725ms total)
T58CC 002:437 JLINK_WriteReg(R4, 0x00000000)  returns 0x00 (0000ms, 1725ms total)
T58CC 002:437 JLINK_WriteReg(R5, 0x00000000)  returns 0x00 (0001ms, 1726ms total)
T58CC 002:438 JLINK_WriteReg(R6, 0x00000000)  returns 0x00 (0000ms, 1726ms total)
T58CC 002:438 JLINK_WriteReg(R7, 0x00000000)  returns 0x00 (0000ms, 1726ms total)
T58CC 002:438 JLINK_WriteReg(R8, 0x00000000)  returns 0x00 (0000ms, 1726ms total)
T58CC 002:438 JLINK_WriteReg(R9, 0x20000160)  returns 0x00 (0000ms, 1726ms total)
T58CC 002:438 JLINK_WriteReg(R10, 0x00000000)  returns 0x00 (0000ms, 1726ms total)
T58CC 002:438 JLINK_WriteReg(R11, 0x00000000)  returns 0x00 (0000ms, 1726ms total)
T58CC 002:438 JLINK_WriteReg(R12, 0x00000000)  returns 0x00 (0000ms, 1726ms total)
T58CC 002:438 JLINK_WriteReg(R13 (SP), 0x20000800)  returns 0x00 (0000ms, 1726ms total)
T58CC 002:438 JLINK_WriteReg(R14, 0x20000001)  returns 0x00 (0000ms, 1726ms total)
T58CC 002:438 JLINK_WriteReg(R15 (PC), 0x200000F4)  returns 0x00 (0000ms, 1726ms total)
T58CC 002:438 JLINK_WriteReg(XPSR, 0x01000000)  returns 0x00 (0000ms, 1726ms total)
T58CC 002:438 JLINK_WriteReg(MSP, 0x20000800)  returns 0x00 (0000ms, 1726ms total)
T58CC 002:438 JLINK_WriteReg(PSP, 0x20000800)  returns 0x00 (0000ms, 1726ms total)
T58CC 002:438 JLINK_WriteReg(CFBP, 0x00000000)  returns 0x00 (0000ms, 1726ms total)
T58CC 002:438 JLINK_SetBPEx(Addr = 0x20000000, Type = 0xFFFFFFF2)  returns 0x0000000D (0000ms, 1726ms total)
T58CC 002:438 JLINK_Go() -- CPU_ReadMem(4 bytes @ 0xE0001000) (0004ms, 1730ms total)
T58CC 002:442 JLINK_IsHalted()  returns FALSE (0001ms, 1731ms total)
T58CC 002:444 JLINK_IsHalted()  returns FALSE (0001ms, 1731ms total)
T58CC 002:446 JLINK_IsHalted()  returns FALSE (0001ms, 1731ms total)
T58CC 002:448 JLINK_IsHalted()  returns FALSE (0001ms, 1731ms total)
T58CC 002:450 JLINK_IsHalted()  returns FALSE (0001ms, 1731ms total)
T58CC 002:452 JLINK_IsHalted()  returns FALSE (0001ms, 1731ms total)
T58CC 002:454 JLINK_IsHalted()  returns FALSE (0001ms, 1731ms total)
T58CC 002:456 JLINK_IsHalted()  returns FALSE (0001ms, 1731ms total)
T58CC 002:458 JLINK_IsHalted()  returns FALSE (0001ms, 1731ms total)
T58CC 002:467 JLINK_IsHalted()  returns FALSE (0001ms, 1731ms total)
T58CC 002:496 JLINK_IsHalted() -- CPU_ReadMem(2 bytes @ 0x20000000)  returns TRUE (0004ms, 1735ms total)
T58CC 002:500 JLINK_ReadReg(R15 (PC))  returns 0x20000000 (0000ms, 1731ms total)
T58CC 002:500 JLINK_ClrBPEx(BPHandle = 0x0000000D)  returns 0x00 (0000ms, 1731ms total)
T58CC 002:500 JLINK_ReadReg(R0)  returns 0x00000000 (0000ms, 1731ms total)
T58CC 002:501 JLINK_WriteMem(0x20000164, 0x0400 Bytes, ...) - Data: C2 F3 0E 02 A0 F8 44 20 70 47 1A B1 83 89 0B 43 ... -- CPU_WriteMem(1024 bytes @ 0x20000164)  returns 0x400 (0004ms, 1735ms total)
T58CC 002:505 JLINK_WriteReg(R0, 0x08002400)  returns 0x00 (0000ms, 1735ms total)
T58CC 002:505 JLINK_WriteReg(R1, 0x00000400)  returns 0x00 (0000ms, 1735ms total)
T58CC 002:505 JLINK_WriteReg(R2, 0x20000164)  returns 0x00 (0000ms, 1735ms total)
T58CC 002:505 JLINK_WriteReg(R3, 0x00000000)  returns 0x00 (0000ms, 1735ms total)
T58CC 002:505 JLINK_WriteReg(R4, 0x00000000)  returns 0x00 (0000ms, 1735ms total)
T58CC 002:505 JLINK_WriteReg(R5, 0x00000000)  returns 0x00 (0000ms, 1735ms total)
T58CC 002:505 JLINK_WriteReg(R6, 0x00000000)  returns 0x00 (0000ms, 1735ms total)
T58CC 002:505 JLINK_WriteReg(R7, 0x00000000)  returns 0x00 (0000ms, 1735ms total)
T58CC 002:505 JLINK_WriteReg(R8, 0x00000000)  returns 0x00 (0000ms, 1735ms total)
